!
! FILE: C:\Documents and Settings\PLTS\デスクトップ\PED\GSGSG_500um\AL_D_3_short.s4p
!
# MHz S MA R 50.00
!
! FREQ                  S11                         S12                         S13                         S14
!                       S21                         S22                         S23                         S24
!                       S31                         S32                         S33                         S34
!                       S41                         S42                         S43                         S44                         
!                       
!                  MAG       ANG               MAG       ANG               MAG       ANG               MAG       ANG               
  10.000       0.005441    85.654987       0.020310  -103.283646       0.998794    -0.829082       0.043476     5.987300    
               0.015809  -152.256190       0.006268    66.598289       0.038992   -22.203879       0.998480    -0.761425    
               0.997604    -0.766466       0.006795    13.413869       0.004064    65.897575       0.029056  -136.491876    
               0.010089   -26.415340       0.998026    -0.831745       0.023353  -143.389863       0.004295    64.131499    
            
  20.000       0.007197    72.449514       0.006053    82.847500       0.997702    -1.585193       0.002836  -112.906585    
               0.006281    80.693426       0.007258    71.271269       0.002939  -108.002198       0.998012    -1.580142    
               0.997592    -1.574298       0.002548  -107.821707       0.007617    71.257755       0.006030    83.980048    
               0.002297  -106.402281       0.997610    -1.556727       0.006111    84.716465       0.007249    76.633607    
            
  30.000       0.010935    75.357759       0.008945    83.889548       0.997292    -2.354257       0.003340  -101.305329    
               0.008976    84.343270       0.010518    76.821251       0.003286  -101.700578       0.997662    -2.342762    
               0.997055    -2.352382       0.003443  -100.276944       0.010897    75.357831       0.008876    84.562261    
               0.003226  -100.517831       0.997437    -2.337630       0.008875    84.984703       0.010540    77.159522    
            
  40.000       0.014424    76.424116       0.011806    84.040949       0.997135    -3.122827       0.004452  -102.350076    
               0.011824    84.155433       0.013832    78.091035       0.004314  -100.123929       0.997441    -3.103783    
               0.996748    -3.124028       0.004379  -101.735871       0.014306    76.029060       0.011804    83.942648    
               0.004296  -100.892479       0.996977    -3.104205       0.011735    84.129585       0.013851    77.716675    
            
  50.000       0.017724    76.533141       0.014521    83.719554       0.996112    -3.876632       0.005330  -103.092138    
               0.014783    83.575447       0.016969    78.727582       0.005198  -101.215060       0.996830    -3.879637    
               0.996686    -3.868441       0.005207  -101.916893       0.017793    77.139796       0.014436    83.555264    
               0.005274   -99.250811       0.997152    -3.862033       0.014710    84.162289       0.016852    77.472216    
            
  60.000       0.021021    75.855814       0.017328    82.261596       0.995533    -4.631179       0.006253  -102.815056    
               0.017624    83.309734       0.020461    78.377383       0.006394  -100.419309       0.996273    -4.620791    
               0.996006    -4.644303       0.006385  -100.795627       0.020749    76.336087       0.017710    83.304892    
               0.006323  -102.170855       0.996881    -4.618194       0.017500    82.881019       0.020444    78.025408    
            
  70.000       0.024209    76.689468       0.020464    82.457412       0.995203    -5.391995       0.007427  -100.501080    
               0.020438    82.722245       0.023928    77.705885       0.007508  -102.292943       0.995584    -5.388057    
               0.995751    -5.394474       0.007471  -100.848699       0.024316    76.525287       0.020427    82.475482    
               0.007430  -102.074995       0.995882    -5.386293       0.020421    82.649012       0.023494    77.979060    
            
  80.000       0.027392    76.208808       0.023352    81.726804       0.994622    -6.156100       0.008717  -101.730852    
               0.023523    81.496290       0.027090    77.320558       0.008592  -103.062031       0.994993    -6.143372    
               0.995352    -6.165820       0.008570  -102.093022       0.027403    76.353555       0.023500    81.768052    
               0.008647  -103.272240       0.995576    -6.121029       0.023292    81.456002       0.026425    77.849830    
            
  90.000       0.030763    76.198726       0.026391    80.660597       0.994429    -6.913123       0.009924  -104.580831    
               0.025974    80.704528       0.030010    76.995801       0.009716  -104.768892       0.994805    -6.886826    
               0.995003    -6.931105       0.009762  -103.582040       0.030644    76.370599       0.026250    80.903017    
               0.009606  -104.386195       0.995404    -6.883910       0.026171    80.791537       0.029779    77.020137    
            
 100.000       0.034052    75.841250       0.029158    80.081084       0.994050    -7.658112       0.010871  -107.384652    
               0.029029    80.060646       0.032947    76.587370       0.010617  -105.410436       0.994586    -7.640313    
               0.994638    -7.678817       0.010741  -106.764189       0.033960    76.170471       0.029013    80.102597    
               0.010633  -105.481181       0.994812    -7.649722       0.029035    79.953141       0.032709    76.569096    
            
 110.000       0.037529    74.906858       0.031849    79.190230       0.993446    -8.430985       0.011600  -108.411589    
               0.031884    79.164892       0.036259    76.030030       0.011676  -106.259894       0.994369    -8.396020    
               0.994055    -8.421187       0.011686  -106.855285       0.037247    75.628693       0.031874    79.185501    
               0.011638  -106.602395       0.994390    -8.385350       0.031779    79.336277       0.035874    75.998298    
            
 120.000       0.040648    74.177544       0.034566    78.619858       0.993179    -9.210098       0.012319  -108.436871    
               0.034648    78.468643       0.039253    75.462573       0.012820  -107.851993       0.994016    -9.132723    
               0.993270    -9.187820       0.012446  -107.938602       0.040444    74.619271       0.034624    78.724100    
               0.012731  -107.467916       0.993825    -9.158941       0.034657    78.520154       0.038996    75.574386    
            
 130.000       0.043692    73.791492       0.037395    77.798784       0.992754    -9.936178       0.013483  -107.921996    
               0.037419    77.743126       0.042385    74.845794       0.013745  -109.069818       0.993198    -9.890731    
               0.992873    -9.925322       0.013486  -107.882162       0.043614    74.211719       0.037516    77.954192    
               0.013726  -109.191917       0.993129    -9.874721       0.037405    77.873926       0.042094    74.677439    
            
 140.000       0.046878    73.301966       0.040334    77.201764       0.992129   -10.672614       0.014837  -108.395127    
               0.040270    76.885634       0.045666    74.213885       0.014775  -110.080421       0.992519   -10.627228    
               0.992709   -10.700918       0.014843  -109.005943       0.046572    73.804888       0.040304    77.132303    
               0.014677  -110.269649       0.992842   -10.629435       0.040215    77.129693       0.045191    74.237855    
            
 150.000       0.050112    72.772408       0.043226    76.176887       0.992081   -11.442027       0.016309  -110.681892    
               0.043020    76.034806       0.048659    73.440564       0.015722  -111.051270       0.992369   -11.361919    
               0.992178   -11.420934       0.016172  -110.775270       0.049716    73.180451       0.043144    76.291698    
               0.015707  -111.271076       0.992804   -11.366715       0.043038    76.340109       0.048140    73.604364    
            
 160.000       0.053344    72.315727       0.045951    75.209800       0.990921   -12.176045       0.017181  -113.571828    
               0.045806    75.370941       0.051775    72.788338       0.016712  -112.562813       0.991250   -12.111535    
               0.991219   -12.176695       0.017062  -113.022051       0.052926    72.740542       0.045843    75.310006    
               0.016665  -112.366000       0.992064   -12.118898       0.045794    75.495404       0.051260    72.855771    
            
 170.000       0.056540    71.586898       0.048480    74.358776       0.990577   -12.930398       0.017707  -115.438319    
               0.048543    74.606072       0.054768    72.179800       0.017738  -113.515658       0.991056   -12.860195    
               0.990932   -12.941010       0.017710  -114.616328       0.056126    71.908052       0.048463    74.610579    
               0.017748  -113.898193       0.991753   -12.844690       0.048495    74.744266       0.054232    72.200291    
            
 180.000       0.059607    70.667876       0.051074    73.754150       0.989738   -13.679288       0.018147  -115.525408    
               0.051270    73.808611       0.057751    71.475167       0.018786  -114.862824       0.990825   -13.614687    
               0.990230   -13.698238       0.018418  -115.313184       0.059448    71.261805       0.051063    74.000833    
               0.018669  -114.847606       0.990713   -13.599008       0.051171    73.898090       0.057343    71.629586    
            
 190.000       0.062383    70.006216       0.053920    73.206158       0.990058   -14.394930       0.019141  -115.140371    
               0.053914    73.082401       0.060724    70.775810       0.019684  -115.955683       0.990126   -14.351395    
               0.990167   -14.426367       0.019381  -115.531813       0.062309    70.419749       0.053917    73.333820    
               0.019687  -116.073488       0.990715   -14.365745       0.053932    73.108873       0.060135    70.907203    
            
 200.000       0.065380    69.258028       0.056778    72.493435       0.988800   -15.174520       0.020621  -115.521792    
               0.056667    72.298112       0.063747    70.182811       0.020613  -116.901292       0.989398   -15.095966    
               0.989225   -15.155870       0.020694  -115.979541       0.065259    69.786914       0.056738    72.517657    
               0.020714  -117.278332       0.989584   -15.096476       0.056601    72.390745       0.063204    70.231789    
            
 210.000       0.068568    68.716465       0.059585    71.557044       0.988874   -15.891729       0.022139  -117.511086    
               0.059316    71.456793       0.066810    69.486638       0.021580  -118.158092       0.988764   -15.834107    
               0.989772   -15.919856       0.022000  -117.761224       0.068058    69.214537       0.059513    71.679558    
               0.021583  -118.412531       0.989712   -15.826089       0.059214    71.632554       0.066102    69.511612    
            
 220.000       0.071737    67.927971       0.062197    70.539646       0.988146   -16.658295       0.023239  -120.214829    
               0.061975    70.726336       0.069663    68.656429       0.022637  -119.435846       0.988078   -16.567240    
               0.989149   -16.649377       0.022956  -119.785112       0.071325    68.671195       0.062154    70.690292    
               0.022602  -119.621663       0.988215   -16.571230       0.061949    70.797500       0.069112    68.713757    
            
 230.000       0.074814    67.149397       0.064534    69.608844       0.987603   -17.397132       0.023666  -122.551450    
               0.064629    69.910274       0.072657    67.863830       0.023542  -120.698536       0.987282   -17.288874    
               0.988025   -17.390505       0.023606  -121.600504       0.074309    68.011616       0.064603    69.884156    
               0.023558  -120.842087       0.988627   -17.314468       0.064539    69.988776       0.071934    68.018480    
            
 240.000       0.077845    66.333697       0.067085    69.079726       0.986773   -18.126455       0.023849  -123.187226    
               0.067254    69.029316       0.075504    67.152805       0.024456  -122.002893       0.987155   -18.012404    
               0.987287   -18.148949       0.024178  -122.612990       0.077402    67.261481       0.067136    69.208877    
               0.024463  -122.096362       0.988489   -18.039832       0.067198    69.211233       0.074910    67.208964    
            
 250.000       0.080719    65.539797       0.069693    68.437739       0.986021   -18.896265       0.024669  -122.705926    
               0.069780    68.294856       0.078295    66.385607       0.025296  -123.000075       0.987707   -18.782030    
               0.986628   -18.871898       0.024952  -122.689333       0.080282    66.523713       0.069797    68.614074    
               0.025385  -123.197104       0.987272   -18.782035       0.069725    68.468312       0.077820    66.535923    
            
 260.000       0.083440    64.907318       0.072601    67.715859       0.985621   -19.617068       0.026020  -122.595424    
               0.072417    67.607263       0.081188    65.649742       0.026357  -124.206765       0.986592   -19.526265    
               0.986004   -19.603134       0.026147  -123.108336       0.083043    65.666530       0.072605    67.869438    
               0.026318  -124.409673       0.986747   -19.536265       0.072345    67.718693       0.080385    65.901351    
            
 270.000       0.086273    64.274933       0.075346    66.801134       0.984777   -20.336767       0.027821  -124.510676    
               0.074987    66.738432       0.083959    64.988423       0.027285  -125.527463       0.985514   -20.264784    
               0.985691   -20.369862       0.027682  -124.452643       0.085726    65.095519       0.075160    67.011717    
               0.027279  -125.484403       0.985948   -20.268776       0.074911    67.011867       0.083149    65.332289    
            
 280.000       0.089388    63.632505       0.077867    65.801451       0.984311   -21.068529       0.029039  -127.052441    
               0.077514    66.002679       0.086938    64.267658       0.028169  -126.550603       0.984789   -20.986433    
               0.984560   -21.098160       0.028711  -126.845185       0.088541    64.515410       0.077780    66.077446    
               0.028246  -126.825055       0.985241   -21.026135       0.077453    66.200328       0.086183    64.644699    
            
 290.000       0.092263    62.921923       0.080135    65.017711       0.983873   -21.839703       0.029364  -129.489223    
               0.080013    65.218568       0.089720    63.544107       0.029042  -127.866287       0.983549   -21.684917    
               0.983905   -21.809513       0.029264  -128.736706       0.091709    63.921930       0.080044    65.250006    
               0.028941  -127.977163       0.984982   -21.736466       0.080001    65.375881       0.088876    63.809099    
            
 300.000       0.095094    61.987917       0.082311    64.341819       0.983187   -22.560966       0.029344  -130.654877    
               0.082602    64.475640       0.092392    62.718422       0.029883  -128.978559       0.983279   -22.414938    
               0.983548   -22.544590       0.029662  -129.801507       0.094579    63.117377       0.082380    64.523724    
               0.029947  -129.230309       0.984135   -22.461065       0.082541    64.589916       0.091693    62.884764    
            
 310.000       0.097665    61.157367       0.084831    63.788929       0.982428   -23.282762       0.029867  -130.192253    
               0.085082    63.717519       0.095174    61.949171       0.030792  -130.120696       0.983246   -23.174434    
               0.983035   -23.289862       0.030319  -130.173451       0.097261    62.174497       0.084903    63.969060    
               0.030765  -130.368250       0.984038   -23.195904       0.084994    63.843279       0.094196    62.199380    
            
 320.000       0.100330    60.403438       0.087513    63.049433       0.981486   -24.010521       0.031250  -129.906710    
               0.087550    62.912705       0.097883    61.138769       0.031675  -131.256056       0.983033   -23.875761    
               0.982294   -23.982345       0.031456  -130.492621       0.099837    61.425901       0.087619    63.287738    
               0.031631  -131.452691       0.982907   -23.986377       0.087437    63.116414       0.096758    61.647456    
            
 330.000       0.103105    59.745701       0.090218    62.258783       0.981265   -24.733886       0.033042  -131.408017    
               0.089946    62.109159       0.100367    60.496925       0.032556  -132.473635       0.981847   -24.659063    
               0.982073   -24.766604       0.032784  -131.687937       0.102418    60.761475       0.090148    62.429041    
               0.032482  -132.713367       0.981860   -24.645309       0.089833    62.398566       0.099617    60.859239    
            
 340.000       0.106002    58.991049       0.092638    61.300359       0.981005   -25.489886       0.034284  -133.892940    
               0.092335    61.362382       0.102872    59.869667       0.033362  -133.708393       0.981319   -25.360264    
               0.980957   -25.479059       0.033952  -133.562675       0.105086    60.234502       0.092586    61.559923    
               0.033309  -134.072705       0.981453   -25.399627       0.092223    61.571624       0.102080    60.144555    
            
 350.000       0.108784    58.291764       0.094752    60.393204       0.979809   -26.220280       0.034694  -136.454344    
               0.094677    60.630311       0.105716    59.146435       0.034176  -134.906344       0.980403   -26.099990    
               0.980269   -26.239985       0.034584  -135.645188       0.107947    59.520786       0.094768    60.711470    
               0.034128  -135.139838       0.980501   -26.128030       0.094683    60.873918       0.104828    59.376823    
            
 360.000       0.111576    57.440912       0.096766    59.744082       0.979340   -26.930201       0.034642  -137.764423    
               0.097069    59.847232       0.108458    58.323305       0.034986  -135.991212       0.979679   -26.810200    
               0.979941   -26.935591       0.034867  -136.887940       0.110713    58.780108       0.096931    59.975591    
               0.034895  -136.196823       0.979848   -26.852605       0.096958    60.100345       0.107191    58.519494    
            
 370.000       0.114155    56.601077       0.099109    59.222204       0.978023   -27.697285       0.034841  -137.736133    
               0.099408    59.066529       0.110778    57.596802       0.035903  -137.061731       0.979084   -27.533014    
               0.978559   -27.671806       0.035268  -137.406293       0.113430    57.845052       0.099222    59.373777    
               0.035857  -137.418770       0.978448   -27.550145       0.099375    59.314071       0.109763    57.961363    
            
